hour, t(sec), S1 (kVA), Ang1, S2 (kVA), Ang2, S3 (kVA), Ang3
0, 900.00000, 215.484, -88.9075, 215.484, -88.9075, 215.484, -88.9075
0, 1800.00000, 215.487, -88.9085, 215.487, -88.9085, 215.487, -88.9085
0, 2700.00000, 215.447, -88.8923, 215.447, -88.8923, 215.447, -88.8923
1, 0.00000, 215.446, -88.8934, 215.446, -88.8934, 215.446, -88.8934
1, 900.00000, 215.418, -88.8795, 215.418, -88.8795, 215.418, -88.8795
1, 1800.00000, 215.418, -88.88, 215.418, -88.88, 215.418, -88.88
1, 2700.00000, 215.446, -88.8932, 215.446, -88.8932, 215.446, -88.8932
2, 0.00000, 215.418, -88.8793, 215.418, -88.8793, 215.418, -88.8793
2, 900.00000, 215.418, -88.8798, 215.418, -88.8798, 215.418, -88.8798
2, 1800.00000, 215.446, -88.893, 215.446, -88.893, 215.446, -88.893
2, 2700.00000, 215.418, -88.8791, 215.418, -88.8791, 215.418, -88.8791
3, 0.00000, 215.418, -88.8796, 215.418, -88.8796, 215.418, -88.8796
3, 900.00000, 215.46, -88.8986, 215.46, -88.8986, 215.46, -88.8986
3, 1800.00000, 215.458, -88.8957, 215.458, -88.8957, 215.458, -88.8957
3, 2700.00000, 215.453, -88.8936, 215.453, -88.8936, 215.453, -88.8936
4, 0.00000, 215.446, -88.8927, 215.446, -88.8927, 215.446, -88.8927
4, 900.00000, 215.418, -88.8787, 215.418, -88.8787, 215.418, -88.8787
4, 1800.00000, 215.418, -88.8792, 215.418, -88.8792, 215.418, -88.8792
4, 2700.00000, 215.446, -88.8924, 215.446, -88.8924, 215.446, -88.8924
5, 0.00000, 215.418, -88.8784, 215.418, -88.8784, 215.418, -88.8784
5, 900.00000, 215.418, -88.879, 215.418, -88.879, 215.418, -88.879
5, 1800.00000, 215.446, -88.8923, 215.446, -88.8923, 215.446, -88.8923
5, 2700.00000, 215.418, -88.8771, 215.418, -88.8771, 215.418, -88.8771
6, 0.00000, 215.418, -88.8765, 215.418, -88.8765, 215.418, -88.8765
6, 900.00000, 215.476, -88.9008, 215.476, -88.9008, 215.476, -88.9008
6, 1800.00000, 215.458, -88.9231, 215.458, -88.9231, 215.458, -88.9231
6, 2700.00000, 215.439, -88.9144, 215.439, -88.9144, 215.439, -88.9144
7, 0.00000, 215.432, -88.911, 215.432, -88.911, 215.432, -88.911
7, 900.00000, 215.413, -88.9239, 215.413, -88.9239, 215.413, -88.9239
7, 1800.00000, 215.414, -88.9235, 215.414, -88.9235, 215.414, -88.9235
7, 2700.00000, 215.428, -88.9361, 215.428, -88.9361, 215.428, -88.9361
8, 0.00000, 215.414, -88.9362, 215.414, -88.9362, 215.414, -88.9362
8, 900.00000, 215.415, -88.9446, 215.415, -88.9446, 215.415, -88.9446
8, 1800.00000, 215.429, -88.956, 215.429, -88.956, 215.429, -88.956
8, 2700.00000, 215.414, -88.9557, 215.414, -88.9557, 215.414, -88.9557
9, 0.00000, 215.451, -88.9902, 215.451, -88.9902, 215.451, -88.9902
9, 900.00000, 215.469, -89.0213, 215.469, -89.0213, 215.469, -89.0213
9, 1800.00000, 215.431, -89.0238, 215.431, -89.0238, 215.431, -89.0238
9, 2700.00000, 215.414, -89.0398, 215.414, -89.0398, 215.414, -89.0398
10, 0.00000, 215.426, -89.0675, 215.426, -89.0675, 215.426, -89.0675
10, 900.00000, 215.41, -89.0828, 215.41, -89.0828, 215.41, -89.0828
10, 1800.00000, 215.408, -89.1033, 215.408, -89.1033, 215.408, -89.1033
10, 2700.00000, 215.421, -89.1331, 215.421, -89.1331, 215.421, -89.1331
11, 0.00000, 215.407, -89.1477, 215.407, -89.1477, 215.407, -89.1477
11, 900.00000, 215.409, -89.172, 215.409, -89.172, 215.409, -89.172
11, 1800.00000, 215.427, -89.2021, 215.427, -89.2021, 215.427, -89.2021
11, 2700.00000, 215.45, -89.2348, 215.45, -89.2348, 215.45, -89.2348
12, 0.00000, 215.477, -89.2725, 215.477, -89.2725, 215.477, -89.2725
12, 900.00000, 215.496, -89.3079, 215.496, -89.3079, 215.496, -89.3079
12, 1800.00000, 215.483, -89.3145, 215.483, -89.3145, 215.483, -89.3145
12, 2700.00000, 215.465, -89.3121, 215.465, -89.3121, 215.465, -89.3121
13, 0.00000, 215.466, -89.3152, 215.466, -89.3152, 215.466, -89.3152
13, 900.00000, 215.467, -89.3174, 215.467, -89.3174, 215.467, -89.3174
13, 1800.00000, 215.464, -89.3157, 215.464, -89.3157, 215.464, -89.3157
13, 2700.00000, 215.464, -89.3147, 215.464, -89.3147, 215.464, -89.3147
14, 0.00000, 215.464, -89.3038, 215.464, -89.3038, 215.464, -89.3038
14, 900.00000, 215.495, -89.3048, 215.495, -89.3048, 215.495, -89.3048
14, 1800.00000, 215.504, -89.301, 215.504, -89.301, 215.504, -89.301
14, 2700.00000, 215.5, -89.2902, 215.5, -89.2902, 215.5, -89.2902
15, 0.00000, 215.463, -89.2392, 215.463, -89.2392, 215.463, -89.2392
15, 900.00000, 215.463, -89.2042, 215.463, -89.2042, 215.463, -89.2042
15, 1800.00000, 215.464, -89.1817, 215.464, -89.1817, 215.464, -89.1817
15, 2700.00000, 215.464, -89.1592, 215.464, -89.1592, 215.464, -89.1592
16, 0.00000, 215.47, -89.1117, 215.47, -89.1117, 215.47, -89.1117
16, 900.00000, 215.506, -89.1084, 215.506, -89.1084, 215.506, -89.1084
16, 1800.00000, 215.491, -89.033, 215.491, -89.033, 215.491, -89.033
16, 2700.00000, 215.472, -88.984, 215.472, -88.984, 215.472, -88.984
17, 0.00000, 215.446, -88.9345, 215.446, -88.9345, 215.446, -88.9345
17, 900.00000, 215.455, -88.9073, 215.455, -88.9073, 215.455, -88.9073
17, 1800.00000, 215.472, -88.9131, 215.472, -88.9131, 215.472, -88.9131
17, 2700.00000, 215.47, -88.9116, 215.47, -88.9116, 215.47, -88.9116
18, 0.00000, 215.48, -88.914, 215.48, -88.914, 215.48, -88.914
18, 900.00000, 215.48, -88.9163, 215.48, -88.9163, 215.48, -88.9163
18, 1800.00000, 215.478, -88.9168, 215.478, -88.9168, 215.478, -88.9168
18, 2700.00000, 215.452, -88.9005, 215.452, -88.9005, 215.452, -88.9005
19, 0.00000, 215.432, -88.8853, 215.432, -88.8853, 215.432, -88.8853
19, 900.00000, 215.446, -88.8928, 215.446, -88.8928, 215.446, -88.8928
19, 1800.00000, 215.428, -88.885, 215.428, -88.885, 215.428, -88.885
19, 2700.00000, 215.418, -88.8808, 215.418, -88.8808, 215.418, -88.8808
20, 0.00000, 215.446, -88.8947, 215.446, -88.8947, 215.446, -88.8947
20, 900.00000, 215.418, -88.8813, 215.418, -88.8813, 215.418, -88.8813
20, 1800.00000, 215.418, -88.8812, 215.418, -88.8812, 215.418, -88.8812
20, 2700.00000, 215.446, -88.8943, 215.446, -88.8943, 215.446, -88.8943
21, 0.00000, 215.442, -88.8911, 215.442, -88.8911, 215.442, -88.8911
21, 900.00000, 215.458, -88.8978, 215.458, -88.8978, 215.458, -88.8978
21, 1800.00000, 215.471, -88.9069, 215.471, -88.9069, 215.471, -88.9069
21, 2700.00000, 215.421, -88.8867, 215.421, -88.8867, 215.421, -88.8867
22, 0.00000, 215.423, -88.8894, 215.423, -88.8894, 215.423, -88.8894
22, 900.00000, 215.461, -88.909, 215.461, -88.909, 215.461, -88.909
22, 1800.00000, 215.426, -88.8942, 215.426, -88.8942, 215.426, -88.8942
22, 2700.00000, 215.428, -88.8965, 215.428, -88.8965, 215.428, -88.8965
23, 0.00000, 215.47, -88.9182, 215.47, -88.9182, 215.47, -88.9182
23, 900.00000, 215.43, -88.9007, 215.43, -88.9007, 215.43, -88.9007
23, 1800.00000, 215.432, -88.9027, 215.432, -88.9027, 215.432, -88.9027
23, 2700.00000, 215.479, -88.9263, 215.479, -88.9263, 215.479, -88.9263
24, 0.00000, 215.434, -88.9063, 215.434, -88.9063, 215.434, -88.9063
24, 900.00000, 215.434, -88.9064, 215.434, -88.9064, 215.434, -88.9064
24, 1800.00000, 215.53, -88.9503, 215.53, -88.9503, 215.53, -88.9503
24, 2700.00000, 215.508, -88.9389, 215.508, -88.9389, 215.508, -88.9389
25, 0.00000, 215.473, -88.926, 215.473, -88.926, 215.473, -88.926
25, 900.00000, 215.491, -88.9376, 215.491, -88.9376, 215.491, -88.9376
25, 1800.00000, 215.439, -88.9134, 215.439, -88.9134, 215.439, -88.9134
25, 2700.00000, 215.44, -88.9155, 215.44, -88.9155, 215.44, -88.9155
26, 0.00000, 215.497, -88.9433, 215.497, -88.9433, 215.497, -88.9433
26, 900.00000, 215.441, -88.9173, 215.441, -88.9173, 215.441, -88.9173
26, 1800.00000, 215.443, -88.9193, 215.443, -88.9193, 215.443, -88.9193
26, 2700.00000, 215.502, -88.9483, 215.502, -88.9483, 215.502, -88.9483
27, 0.00000, 215.444, -88.9207, 215.444, -88.9207, 215.444, -88.9207
27, 900.00000, 215.445, -88.9214, 215.445, -88.9214, 215.445, -88.9214
27, 1800.00000, 215.515, -88.9542, 215.515, -88.9542, 215.515, -88.9542
27, 2700.00000, 215.53, -88.956, 215.53, -88.956, 215.53, -88.956
28, 0.00000, 215.531, -88.9568, 215.531, -88.9568, 215.531, -88.9568
28, 900.00000, 215.51, -88.9514, 215.51, -88.9514, 215.51, -88.9514
28, 1800.00000, 215.444, -88.9198, 215.444, -88.9198, 215.444, -88.9198
28, 2700.00000, 215.445, -88.9207, 215.445, -88.9207, 215.445, -88.9207
29, 0.00000, 215.505, -88.9488, 215.505, -88.9488, 215.505, -88.9488
29, 900.00000, 215.444, -88.9193, 215.444, -88.9193, 215.444, -88.9193
29, 1800.00000, 215.445, -88.9203, 215.445, -88.9203, 215.445, -88.9203
29, 2700.00000, 215.505, -88.946, 215.505, -88.946, 215.505, -88.946
30, 0.00000, 215.444, -88.9139, 215.444, -88.9139, 215.444, -88.9139
30, 900.00000, 215.445, -88.9127, 215.445, -88.9127, 215.445, -88.9127
30, 1800.00000, 215.556, -89.0299, 215.556, -89.0299, 215.556, -89.0299
30, 2700.00000, 215.53, -89.0118, 215.53, -89.0118, 215.53, -89.0118
31, 0.00000, 215.5, -88.998, 215.5, -88.998, 215.5, -88.998
31, 900.00000, 215.465, -89.0314, 215.465, -89.0314, 215.465, -89.0314
31, 1800.00000, 215.434, -89.0135, 215.434, -89.0135, 215.434, -89.0135
31, 2700.00000, 215.436, -89.0174, 215.436, -89.0174, 215.436, -89.0174
32, 0.00000, 215.466, -89.0353, 215.466, -89.0353, 215.466, -89.0353
32, 900.00000, 215.436, -89.0244, 215.436, -89.0244, 215.436, -89.0244
32, 1800.00000, 215.438, -89.0308, 215.438, -89.0308, 215.438, -89.0308
32, 2700.00000, 215.468, -89.0506, 215.468, -89.0506, 215.468, -89.0506
33, 0.00000, 215.437, -89.0428, 215.437, -89.0428, 215.437, -89.0428
33, 900.00000, 215.51, -89.081, 215.51, -89.081, 215.51, -89.081
33, 1800.00000, 215.554, -89.1104, 215.554, -89.1104, 215.554, -89.1104
33, 2700.00000, 215.476, -89.0839, 215.476, -89.0839, 215.476, -89.0839
34, 0.00000, 215.435, -89.0693, 215.435, -89.0693, 215.435, -89.0693
34, 900.00000, 215.461, -89.0835, 215.461, -89.0835, 215.461, -89.0835
34, 1800.00000, 215.428, -89.0723, 215.428, -89.0723, 215.428, -89.0723
34, 2700.00000, 215.428, -89.0792, 215.428, -89.0792, 215.428, -89.0792
35, 0.00000, 215.458, -89.1008, 215.458, -89.1008, 215.458, -89.1008
35, 900.00000, 215.431, -89.0963, 215.431, -89.0963, 215.431, -89.0963
35, 1800.00000, 215.476, -89.1306, 215.476, -89.1306, 215.476, -89.1306
35, 2700.00000, 215.517, -89.1668, 215.517, -89.1668, 215.517, -89.1668
36, 0.00000, 215.522, -89.1853, 215.522, -89.1853, 215.522, -89.1853
36, 900.00000, 215.529, -89.2065, 215.529, -89.2065, 215.529, -89.2065
36, 1800.00000, 215.627, -89.2923, 215.627, -89.2923, 215.627, -89.2923
36, 2700.00000, 215.633, -89.3409, 215.633, -89.3409, 215.633, -89.3409
37, 0.00000, 215.568, -89.3354, 215.568, -89.3354, 215.568, -89.3354
37, 900.00000, 215.553, -89.3531, 215.553, -89.3531, 215.553, -89.3531
37, 1800.00000, 215.548, -89.3287, 215.548, -89.3287, 215.548, -89.3287
37, 2700.00000, 215.549, -89.3095, 215.549, -89.3095, 215.549, -89.3095
38, 0.00000, 215.55, -89.2941, 215.55, -89.2941, 215.55, -89.2941
38, 900.00000, 215.552, -89.2792, 215.552, -89.2792, 215.552, -89.2792
38, 1800.00000, 215.62, -89.2873, 215.62, -89.2873, 215.62, -89.2873
38, 2700.00000, 215.643, -89.2799, 215.643, -89.2799, 215.643, -89.2799
39, 0.00000, 215.641, -89.2716, 215.641, -89.2716, 215.641, -89.2716
39, 900.00000, 215.558, -89.232, 215.558, -89.232, 215.558, -89.232
39, 1800.00000, 215.558, -89.2598, 215.558, -89.2598, 215.558, -89.2598
39, 2700.00000, 215.559, -89.2839, 215.559, -89.2839, 215.559, -89.2839
40, 0.00000, 215.559, -89.184, 215.559, -89.184, 215.559, -89.184
40, 900.00000, 215.554, -89.1501, 215.554, -89.1501, 215.554, -89.1501
40, 1800.00000, 215.593, -89.0887, 215.593, -89.0887, 215.593, -89.0887
40, 2700.00000, 215.594, -89.0649, 215.594, -89.0649, 215.594, -89.0649
41, 0.00000, 215.569, -89.0247, 215.569, -89.0247, 215.569, -89.0247
41, 900.00000, 215.558, -88.9979, 215.558, -88.9979, 215.558, -88.9979
41, 1800.00000, 215.558, -88.9928, 215.558, -88.9928, 215.558, -88.9928
41, 2700.00000, 215.555, -88.9898, 215.555, -88.9898, 215.555, -88.9898
42, 0.00000, 215.535, -88.9778, 215.535, -88.9778, 215.535, -88.9778
42, 900.00000, 215.522, -88.9771, 215.522, -88.9771, 215.522, -88.9771
42, 1800.00000, 215.543, -88.9871, 215.543, -88.9871, 215.543, -88.9871
42, 2700.00000, 215.546, -88.9769, 215.546, -88.9769, 215.546, -88.9769
43, 0.00000, 215.494, -88.9422, 215.494, -88.9422, 215.494, -88.9422
43, 900.00000, 215.475, -88.936, 215.475, -88.936, 215.475, -88.936
43, 1800.00000, 215.445, -88.9229, 215.445, -88.9229, 215.445, -88.9229
43, 2700.00000, 215.473, -88.9381, 215.473, -88.9381, 215.473, -88.9381
44, 0.00000, 215.475, -88.9401, 215.475, -88.9401, 215.475, -88.9401
44, 900.00000, 215.444, -88.9253, 215.444, -88.9253, 215.444, -88.9253
44, 1800.00000, 215.473, -88.9388, 215.473, -88.9388, 215.473, -88.9388
44, 2700.00000, 215.474, -88.9393, 215.474, -88.9393, 215.474, -88.9393
45, 0.00000, 215.444, -88.9247, 215.444, -88.9247, 215.444, -88.9247
45, 900.00000, 215.473, -88.9383, 215.473, -88.9383, 215.473, -88.9383
45, 1800.00000, 215.544, -88.9679, 215.544, -88.9679, 215.544, -88.9679
45, 2700.00000, 215.53, -88.9602, 215.53, -88.9602, 215.53, -88.9602
46, 0.00000, 215.497, -88.9483, 215.497, -88.9483, 215.497, -88.9483
46, 900.00000, 215.475, -88.9391, 215.475, -88.9391, 215.475, -88.9391
46, 1800.00000, 215.445, -88.9248, 215.445, -88.9248, 215.445, -88.9248
46, 2700.00000, 215.474, -88.9384, 215.474, -88.9384, 215.474, -88.9384
47, 0.00000, 215.476, -88.9392, 215.476, -88.9392, 215.476, -88.9392
47, 900.00000, 215.446, -88.925, 215.446, -88.925, 215.446, -88.925
47, 1800.00000, 215.475, -88.9386, 215.475, -88.9386, 215.475, -88.9386
47, 2700.00000, 215.477, -88.9394, 215.477, -88.9394, 215.477, -88.9394
48, 0.00000, 215.447, -88.9252, 215.447, -88.9252, 215.447, -88.9252
48, 900.00000, 215.476, -88.9385, 215.476, -88.9385, 215.476, -88.9385
48, 1800.00000, 215.476, -88.9383, 215.476, -88.9383, 215.476, -88.9383
48, 2700.00000, 215.453, -88.9275, 215.453, -88.9275, 215.453, -88.9275
49, 0.00000, 215.56, -88.9735, 215.56, -88.9735, 215.56, -88.9735
49, 900.00000, 215.561, -88.9733, 215.561, -88.9733, 215.561, -88.9733
49, 1800.00000, 215.455, -88.9282, 215.455, -88.9282, 215.455, -88.9282
49, 2700.00000, 215.477, -88.9389, 215.477, -88.9389, 215.477, -88.9389
50, 0.00000, 215.478, -88.9387, 215.478, -88.9387, 215.478, -88.9387
50, 900.00000, 215.45, -88.9257, 215.45, -88.9257, 215.45, -88.9257
50, 1800.00000, 215.478, -88.9391, 215.478, -88.9391, 215.478, -88.9391
50, 2700.00000, 215.479, -88.9389, 215.479, -88.9389, 215.479, -88.9389
51, 0.00000, 215.451, -88.926, 215.451, -88.926, 215.451, -88.926
51, 900.00000, 215.478, -88.9389, 215.478, -88.9389, 215.478, -88.9389
51, 1800.00000, 215.478, -88.9383, 215.478, -88.9383, 215.478, -88.9383
51, 2700.00000, 215.45, -88.9252, 215.45, -88.9252, 215.45, -88.9252
52, 0.00000, 215.534, -88.9616, 215.534, -88.9616, 215.534, -88.9616
52, 900.00000, 215.561, -88.9722, 215.561, -88.9722, 215.561, -88.9722
52, 1800.00000, 215.493, -88.9427, 215.493, -88.9427, 215.493, -88.9427
52, 2700.00000, 215.478, -88.938, 215.478, -88.938, 215.478, -88.938
53, 0.00000, 215.478, -88.9374, 215.478, -88.9374, 215.478, -88.9374
53, 900.00000, 215.45, -88.9245, 215.45, -88.9245, 215.45, -88.9245
53, 1800.00000, 215.478, -88.9376, 215.478, -88.9376, 215.478, -88.9376
53, 2700.00000, 215.478, -88.9345, 215.478, -88.9345, 215.478, -88.9345
54, 0.00000, 215.451, -88.9195, 215.451, -88.9195, 215.451, -88.9195
54, 900.00000, 215.478, -88.9302, 215.478, -88.9302, 215.478, -88.9302
54, 1800.00000, 215.478, -88.9944, 215.478, -88.9944, 215.478, -88.9944
54, 2700.00000, 215.471, -88.9882, 215.471, -88.9882, 215.471, -88.9882
55, 0.00000, 215.561, -89.0246, 215.561, -89.0246, 215.561, -89.0246
55, 900.00000, 215.523, -89.0507, 215.523, -89.0507, 215.523, -89.0507
55, 1800.00000, 215.442, -89.0157, 215.442, -89.0157, 215.442, -89.0157
55, 2700.00000, 215.471, -89.0302, 215.471, -89.0302, 215.471, -89.0302
56, 0.00000, 215.441, -89.0189, 215.441, -89.0189, 215.441, -89.0189
56, 900.00000, 215.444, -89.0243, 215.444, -89.0243, 215.444, -89.0243
56, 1800.00000, 215.472, -89.0373, 215.472, -89.0373, 215.472, -89.0373
56, 2700.00000, 215.442, -89.0235, 215.442, -89.0235, 215.442, -89.0235
57, 0.00000, 215.444, -89.0296, 215.444, -89.0296, 215.444, -89.0296
57, 900.00000, 215.472, -89.0472, 215.472, -89.0472, 215.472, -89.0472
57, 1800.00000, 215.489, -89.0535, 215.489, -89.0535, 215.489, -89.0535
57, 2700.00000, 215.526, -89.0712, 215.526, -89.0712, 215.526, -89.0712
58, 0.00000, 215.53, -89.0773, 215.53, -89.0773, 215.53, -89.0773
58, 900.00000, 215.438, -89.0403, 215.438, -89.0403, 215.438, -89.0403
58, 1800.00000, 215.435, -89.0392, 215.435, -89.0392, 215.435, -89.0392
58, 2700.00000, 215.463, -89.0539, 215.463, -89.0539, 215.463, -89.0539
59, 0.00000, 215.436, -89.0326, 215.436, -89.0326, 215.436, -89.0326
59, 900.00000, 215.441, -89.0274, 215.441, -89.0274, 215.441, -89.0274
59, 1800.00000, 215.513, -89.0594, 215.513, -89.0594, 215.513, -89.0594
59, 2700.00000, 215.497, -89.0539, 215.497, -89.0539, 215.497, -89.0539
60, 0.00000, 215.503, -89.0614, 215.503, -89.0614, 215.503, -89.0614
60, 900.00000, 215.536, -89.0827, 215.536, -89.0827, 215.536, -89.0827
60, 1800.00000, 215.522, -89.0917, 215.522, -89.0917, 215.522, -89.0917
60, 2700.00000, 215.575, -89.1279, 215.575, -89.1279, 215.575, -89.1279
61, 0.00000, 215.642, -89.1667, 215.642, -89.1667, 215.642, -89.1667
61, 900.00000, 215.599, -89.1565, 215.599, -89.1565, 215.599, -89.1565
61, 1800.00000, 215.529, -89.1318, 215.529, -89.1318, 215.529, -89.1318
61, 2700.00000, 215.559, -89.1508, 215.559, -89.1508, 215.559, -89.1508
62, 0.00000, 215.532, -89.1268, 215.532, -89.1268, 215.532, -89.1268
62, 900.00000, 215.532, -89.116, 215.532, -89.116, 215.532, -89.116
62, 1800.00000, 215.561, -89.13, 215.561, -89.13, 215.561, -89.13
62, 2700.00000, 215.583, -89.1373, 215.583, -89.1373, 215.583, -89.1373
63, 0.00000, 215.617, -89.1626, 215.617, -89.1626, 215.617, -89.1626
63, 900.00000, 215.645, -89.1871, 215.645, -89.1871, 215.645, -89.1871
63, 1800.00000, 215.549, -89.1555, 215.549, -89.1555, 215.549, -89.1555
63, 2700.00000, 215.533, -89.1588, 215.533, -89.1588, 215.533, -89.1588
64, 0.00000, 215.562, -89.0943, 215.562, -89.0943, 215.562, -89.0943
64, 900.00000, 215.527, -89.0671, 215.527, -89.0671, 215.527, -89.0671
64, 1800.00000, 215.483, -88.9888, 215.483, -88.9888, 215.483, -88.9888
64, 2700.00000, 215.591, -89.0251, 215.591, -89.0251, 215.591, -89.0251
65, 0.00000, 215.566, -89.0061, 215.566, -89.0061, 215.566, -89.0061
65, 900.00000, 215.603, -89.014, 215.603, -89.014, 215.603, -89.014
65, 1800.00000, 215.559, -88.9941, 215.559, -88.9941, 215.559, -88.9941
65, 2700.00000, 215.526, -88.9765, 215.526, -88.9765, 215.526, -88.9765
66, 0.00000, 215.509, -88.9664, 215.509, -88.9664, 215.509, -88.9664
66, 900.00000, 215.493, -88.965, 215.493, -88.965, 215.493, -88.965
66, 1800.00000, 215.471, -88.958, 215.471, -88.958, 215.471, -88.958
66, 2700.00000, 215.547, -88.9788, 215.547, -88.9788, 215.547, -88.9788
67, 0.00000, 215.559, -88.9703, 215.559, -88.9703, 215.559, -88.9703
67, 900.00000, 215.505, -88.9502, 215.505, -88.9502, 215.505, -88.9502
67, 1800.00000, 215.45, -88.9268, 215.45, -88.9268, 215.45, -88.9268
67, 2700.00000, 215.476, -88.9401, 215.476, -88.9401, 215.476, -88.9401
68, 0.00000, 215.479, -88.9433, 215.479, -88.9433, 215.479, -88.9433
68, 900.00000, 215.449, -88.9291, 215.449, -88.9291, 215.449, -88.9291
68, 1800.00000, 215.476, -88.9409, 215.476, -88.9409, 215.476, -88.9409
68, 2700.00000, 215.478, -88.9426, 215.478, -88.9426, 215.478, -88.9426
69, 0.00000, 215.449, -88.9285, 215.449, -88.9285, 215.449, -88.9285
69, 900.00000, 215.476, -88.9405, 215.476, -88.9405, 215.476, -88.9405
69, 1800.00000, 215.478, -88.9421, 215.478, -88.9421, 215.478, -88.9421
69, 2700.00000, 215.45, -88.9282, 215.45, -88.9282, 215.45, -88.9282
70, 0.00000, 215.558, -88.9742, 215.558, -88.9742, 215.558, -88.9742
70, 900.00000, 215.561, -88.9757, 215.561, -88.9757, 215.561, -88.9757
70, 1800.00000, 215.455, -88.9297, 215.455, -88.9297, 215.455, -88.9297
70, 2700.00000, 215.474, -88.9384, 215.474, -88.9384, 215.474, -88.9384
